! Touchstone generated by fitter/viewer 
# HZ Z  RI R 1.000000e+000
! 
1.000000000000000e+006 5.305119910000000e-003 8.481465560000000e-003
1.151395400000000e+006 5.467007770000000e-003 1.048612150000000e-002
1.325711370000000e+006 5.413256810000000e-003 1.282312500000000e-002
1.526417970000000e+006 5.392650360000000e-003 1.563789470000000e-002
1.757510620000000e+006 5.529436980000000e-003 1.885255110000000e-002
2.023589650000000e+006 5.824221330000000e-003 2.243957480000000e-002
2.329951810000000e+006 6.290815530000000e-003 2.641168120000000e-002
2.682695800000000e+006 6.938520260000000e-003 3.072956250000000e-002
3.088843600000000e+006 7.607543210000000e-003 3.534852150000000e-002
3.556480310000000e+006 8.133787060000000e-003 4.052883020000000e-002
4.094915060000000e+006 8.637061650000000e-003 4.638351930000000e-002
4.714866360000000e+006 8.879480990000001e-003 5.306108520000000e-002
5.428675440000000e+006 9.031162080000000e-003 6.103409380000000e-002
6.250551930000000e+006 9.349870789999999e-003 7.031521460000000e-002
7.196856730000000e+006 9.806598060000000e-003 8.093450490000000e-002
8.286427730000000e+006 1.034031730000000e-002 9.306355860000000e-002
9.540954760000000e+006 1.091513460000000e-002 1.069429500000000e-001
1.098541140000000e+007 1.151416850000000e-002 1.228592480000000e-001
1.264855220000000e+007 1.213307310000000e-002 1.411411760000000e-001
1.456348480000000e+007 1.277536260000000e-002 1.621624020000000e-001
1.676832940000000e+007 1.345030470000000e-002 1.863477490000000e-001
1.930697730000000e+007 1.417108690000000e-002 2.141805100000000e-001
2.222996480000000e+007 1.495319470000000e-002 2.462113580000000e-001
2.559547920000000e+007 1.581270180000000e-002 2.830686380000000e-001
2.947051700000000e+007 1.674724370000000e-002 3.254730170000000e-001
3.393221770000000e+007 1.782028980000000e-002 3.742481460000000e-001
3.906939940000000e+007 1.898662990000000e-002 4.303487900000000e-001
4.498432670000000e+007 2.026461890000000e-002 4.948744360000000e-001
5.179474680000000e+007 2.161038360000000e-002 5.691024750000000e-001
5.963623320000000e+007 2.308686230000000e-002 6.545115960000000e-001
6.866488450000000e+007 2.471499130000000e-002 7.528229430000000e-001
7.906043209999999e+007 2.639016280000000e-002 8.660453190000000e-001
9.102981780000000e+007 2.817478850000000e-002 9.965056350000000e-001
1.048113130000000e+008 3.009830790000000e-002 1.146913530000000e+000
1.206792640000000e+008 3.221088760000000e-002 1.320429430000000e+000
1.389495490000000e+008 3.458465570000000e-002 1.520758130000000e+000
1.599858720000000e+008 3.732170990000000e-002 1.752277890000000e+000
1.842069970000000e+008 4.056382390000000e-002 2.020229580000000e+000
2.120950890000000e+008 4.418225190000000e-002 2.331026300000000e+000
2.442053090000000e+008 4.948479930000000e-002 2.692718640000000e+000
2.811768700000000e+008 5.602206210000000e-002 3.116084050000000e+000
3.237457540000000e+008 6.523311750000001e-002 3.616770050000000e+000
3.727593720000000e+008 7.986277070000000e-002 4.221473950000000e+000
4.291934260000000e+008 1.091591950000000e-001 4.990317840000000e+000
4.941713360000000e+008 2.096308620000000e-001 6.152182760000000e+000
5.689866030000000e+008 4.738629570000000e+000 1.115023770000000e+001
6.551285570000000e+008 1.540229580000000e-001 5.659292890000000e+000
7.543120060000000e+008 1.913791290000000e-001 7.781853440000000e+000
8.685113740000000e+008 1.056169800000000e-001 8.298930570000000e+000
1.000000000000000e+009 9.029825160000000e-002 1.020916000000000e+001
