! HyperLynx V9.4.1 SI-SPICE V2015.12.15
# HZ Z  RI R 1.000000e-001
! 
1.000000000000000e+006 5.618988166014228e-003 7.057763434549752e-003
1.177502013025367e+006 5.214825372912780e-003 9.190867795368081e-003
1.355004026050735e+006 4.980149922552113e-003 1.165987479314869e-002
1.532506039076102e+006 4.945818080795528e-003 1.407996990493864e-002
1.745508454706543e+006 5.028580318354248e-003 1.686791560917501e-002
2.001111353463072e+006 5.231147821794036e-003 2.008124194960524e-002
2.307834831970907e+006 5.593637920433836e-003 2.377664652434888e-002
2.675903006180309e+006 6.157113562822558e-003 2.793738672605374e-002
3.117584815231592e+006 6.748085613658206e-003 3.251473998574696e-002
3.647602986093130e+006 7.176210608001110e-003 3.785842837569656e-002
4.283624791126977e+006 7.526538144523309e-003 4.409345807607304e-002
5.046850957167593e+006 7.510499807146198e-003 5.170174729995683e-002
5.810077123208209e+006 7.570416793225521e-003 5.957669831988978e-002
6.725948522456948e+006 7.807208649545917e-003 6.900830025077144e-002
7.824994201555435e+006 8.157571808039976e-003 8.021215482461513e-002
9.143849016473619e+006 8.569277000492637e-003 9.353919616562145e-002
1.072647479437544e+007 9.014468284671562e-003 1.094363844415708e-001
1.262562572785763e+007 9.483975119380395e-003 1.284440890574672e-001
1.490460684803625e+007 9.983697628040989e-003 1.512063046412056e-001
1.718358796821487e+007 1.044317814041111e-002 1.739418043621944e-001
1.991836531242922e+007 1.096858212032592e-002 2.012002429260066e-001
2.320009812548643e+007 1.158500543719141e-002 2.338780014188559e-001
2.713817750115509e+007 1.232143546856790e-002 2.730416913691897e-001
3.186387275195748e+007 1.320653089109896e-002 3.199627373082564e-001
3.753470705292035e+007 1.426268334915548e-002 3.761624173582235e-001
4.320554135388321e+007 1.529690340252867e-002 4.322614820913953e-001
5.001054251503865e+007 1.649024025078081e-002 4.994788965287342e-001
5.817654390842518e+007 1.783724318924898e-002 5.800490645779627e-001
6.797574558048901e+007 1.932707709609789e-002 6.766898050185350e-001
7.973478758696561e+007 2.095396494094910e-002 7.927173810775430e-001
9.384563799473752e+007 2.273246676645102e-002 9.321893917834118e-001
1.107786584840638e+008 2.471456994604740e-002 1.100090887695617e+000
1.277116789733901e+008 2.662608788112415e-002 1.268755853573819e+000
1.480313035605817e+008 2.892794009893840e-002 1.472407033151146e+000
1.724148530652116e+008 3.181630504860560e-002 1.719038141049532e+000
2.016751124707674e+008 3.560679687551167e-002 2.019084525904663e+000
2.367874237574344e+008 4.083760524617863e-002 2.386748801556137e+000
2.789221973014349e+008 4.854093223215275e-002 2.842612216312913e+000
3.210569708454353e+008 5.868252279211483e-002 3.321379981086011e+000
3.716186990982359e+008 7.674320596837037e-002 3.944560228302002e+000
4.322927730015965e+008 1.187350908996905e-001 4.826674238851382e+000
5.051016616856292e+008 3.079712159457075e-001 6.479830335924816e+000
5.487869948960488e+008 1.154891679600341e+000 9.062074596127692e+000
5.597083281986537e+008 2.109420713231900e+000 1.056373678187587e+001
5.706296615012586e+008 4.963942528819235e+000 1.291508450732758e+001
5.760903281525611e+008 8.615319981719715e+000 1.386772646538175e+001
5.788206614782122e+008 1.147743832521950e+001 1.348865643639256e+001
5.815509948038634e+008 1.477272299054921e+001 1.160106035534898e+001
5.842813281295146e+008 1.724154825527124e+001 7.627534791702303e+000
5.856464947923402e+008 1.758339647604964e+001 5.087654231798457e+000
5.870116614551657e+008 1.716599457490400e+001 2.557235035230101e+000
5.883768281179913e+008 1.608520633001290e+001 3.469438321740386e-001
5.897419947808169e+008 1.457022098503219e+001 -1.348790732555854e+000
5.911071614436425e+008 1.287603990941831e+001 -2.487258061147900e+000
5.924723281064681e+008 1.120144888357719e+001 -3.135850156212223e+000
5.938374947692937e+008 9.664091408888247e+000 -3.408043333709456e+000
5.952026614321193e+008 8.314145977677656e+000 -3.417236885534714e+000
5.965678280949448e+008 7.159080437806941e+000 -3.255962164690363e+000
5.979329947577704e+008 6.184466446962996e+000 -2.991926711660479e+000
5.992981614205960e+008 5.367286140586167e+000 -2.671489916277801e+000
6.006633280834216e+008 4.683104355476511e+000 -2.324993739960184e+000
6.023015280788124e+008 4.006104369872975e+000 -1.901211925503767e+000
6.042673680732813e+008 3.357734418669649e+000 -1.405602617943906e+000
6.066263760666440e+008 2.757536354967417e+000 -8.496885845156964e-001
6.094571856586791e+008 2.220675656463046e+000 -2.496407419760023e-001
6.122879952507143e+008 1.823183936894121e+000 2.784808031375397e-001
6.151188048427495e+008 1.522528352308014e+000 7.422605221894032e-001
6.179496144347847e+008 1.290680776560986e+000 1.150749914118753e+000
6.207804240268198e+008 1.108788912034983e+000 1.512484151572922e+000
6.236112336188550e+008 9.638983743125126e-001 1.834882502677375e+000
6.264420432108902e+008 8.469210173571105e-001 2.124179113455015e+000
6.292728528029254e+008 7.513556732495694e-001 2.385538924127388e+000
6.326698243133676e+008 6.583652853655222e-001 2.668238191086907e+000
6.367461901258982e+008 5.703582407506480e-001 2.970743068921905e+000
6.416378291009351e+008 4.895753596575587e-001 3.291382631157035e+000
6.475077958709793e+008 4.179535677286200e-001 3.628836052283305e+000
6.545517559950323e+008 3.570918760202436e-001 3.982832454757712e+000
6.630045081438959e+008 3.083984984529125e-001 4.355165597780213e+000
6.731478107225322e+008 2.735786966381032e-001 4.751338546563733e+000
6.853197738168957e+008 2.559449029869229e-001 5.183803386773606e+000
6.999261295301321e+008 2.644449670241806e-001 5.680024981623466e+000
7.174537563860157e+008 3.303596780847222e-001 6.308507923066269e+000
7.384869086130760e+008 6.218294382513361e-001 7.294919080405467e+000
7.490034847266061e+008 1.081719560437642e+000 8.030345927082752e+000
7.595200608401363e+008 2.421861770074786e+000 8.955907592755203e+000
7.621492048685188e+008 3.087371763815095e+000 9.102266715174469e+000
7.647783488969014e+008 3.953031236342463e+000 9.064424412804724e+000
7.674074929252839e+008 4.973579178469206e+000 8.663014660345821e+000
7.700366369536665e+008 5.920105349449153e+000 7.713375111523894e+000
7.726657809820490e+008 6.367265941540509e+000 6.262164912550720e+000
7.752949250104315e+008 6.032359556216075e+000 4.761834757136310e+000
7.779240690388141e+008 5.124400131270098e+000 3.715229606414467e+000
7.805532130671966e+008 4.081380018686829e+000 3.237967481180668e+000
7.831823570955792e+008 3.174506513117950e+000 3.161544732161045e+000
7.858115011239617e+008 2.471914450971868e+000 3.294421876991253e+000
7.884406451523442e+008 1.949917158027270e+000 3.514581431474931e+000
7.910697891807268e+008 1.565076069080490e+000 3.759631558619421e+000
7.936989332091093e+008 1.279189435059035e+000 4.001334584106633e+000
7.963280772374919e+008 1.063839976702814e+000 4.228404117822973e+000
7.989572212658744e+008 8.990155845970475e-001 4.437405964727797e+000
8.021121940999334e+008 7.486725394755722e-001 4.664474536924013e+000
8.058981615008042e+008 6.157203638465039e-001 4.906201601203795e+000
8.104413223818492e+008 5.016555477616800e-001 5.159267711932976e+000
8.158931154391033e+008 4.066057315913337e-001 5.421058450037613e+000
8.224352671078081e+008 3.295791956212990e-001 5.690173951251456e+000
8.302858491102539e+008 2.688276192206001e-001 5.966777899481535e+000
8.397065475131888e+008 2.222263971233278e-001 6.252798890363223e+000
8.510113855967108e+008 1.876040692490864e-001 6.552048613442084e+000
8.645771912969371e+008 1.629913474093590e-001 6.870351421870438e+000
8.808561581372087e+008 1.467949664840399e-001 7.215798576638718e+000
9.003909183455347e+008 1.379277995681883e-001 7.599268417797909e+000
9.238326305955257e+008 1.359498963431023e-001 8.035425387768184e+000
9.519626852955151e+008 1.413138400067234e-001 8.544589455212321e+000
9.857187509355023e+008 1.559556448340956e-001 9.156801418933540e+000
1.026226029703487e+009 1.848902687169260e-001 9.921753669656827e+000
1.074834764225069e+009 2.403564124773304e-001 1.092800899458195e+001
1.133165245650966e+009 3.568071623873603e-001 1.236164329961679e+001
1.203161823362044e+009 6.619836314164496e-001 1.471950921814053e+001
1.287157716615337e+009 1.989903573981016e+000 2.002186438962207e+001
1.329155663241983e+009 4.686783604631441e+000 2.578726060020871e+001
1.371153609868630e+009 1.791357458933785e+001 3.754215185267113e+001
1.381653096525291e+009 2.803323508596657e+001 4.011139370003073e+001
1.392152583181953e+009 4.381658119847882e+001 3.687767863987590e+001
1.397402326510284e+009 5.243379598691308e+001 3.017509933309758e+001
1.402652069838615e+009 5.858693506885119e+001 1.923645569257096e+001
1.407901813166945e+009 5.957084657028550e+001 5.968943979804635e+000
1.413151556495276e+009 5.494812330970059e+001 -5.985711205529089e+000
1.418401299823607e+009 4.699652826104417e+001 -1.405508040915511e+001
1.423651043151938e+009 3.846631873143542e+001 -1.808742614718052e+001
1.428900786480268e+009 3.093389814822822e+001 -1.925335725653318e+001
1.434150529808599e+009 2.485040517514644e+001 -1.877857436833683e+001
1.439400273136930e+009 2.011673777725927e+001 -1.750236598697398e+001
1.444650016465261e+009 1.647294144478223e+001 -1.590590673535620e+001
1.449899759793591e+009 1.366133361889841e+001 -1.423968688186851e+001
1.455149503121922e+009 1.147290425665214e+001 -1.262451351387899e+001
1.460399246450253e+009 9.749994094375616e+000 -1.111279528257594e+001
1.466698938444250e+009 8.136310870315270e+000 -9.458924737959036e+000
1.474258568837046e+009 6.670035065908675e+000 -7.702752640540655e+000
1.483330125308402e+009 5.376827804639569e+000 -5.890095808743588e+000
1.494215993074028e+009 4.268337181059390e+000 -4.067075380778135e+000
1.507279034392780e+009 3.343115141484747e+000 -2.274827693556532e+000
1.520342075711532e+009 2.695296570283157e+000 -8.076851955433213e-001
1.533405117030284e+009 2.224761314458250e+000 4.161318308208308e-001
1.546468158349037e+009 1.872497439930337e+000 1.454809912836453e+000
1.559531199667789e+009 1.602033788571893e+000 2.350164759030662e+000
1.572594240986541e+009 1.389903682134557e+000 3.132731953348731e+000
1.585657282305293e+009 1.220482158387631e+000 3.825189765100483e+000
1.598720323624045e+009 1.083044658949568e+000 4.444669334804082e+000
1.614395973206547e+009 9.498632317849243e-001 5.110017652526082e+000
1.633206752705550e+009 8.239405571921985e-001 5.818635569214123e+000
1.655779688104354e+009 7.079314908992984e-001 6.568386660181190e+000
1.682867210582918e+009 6.040343677898079e-001 7.358636284219578e+000
1.715372237557195e+009 5.141669635844792e-001 8.191687138958855e+000
1.754378269926328e+009 4.413298309432481e-001 9.075284138389172e+000
1.801185508769287e+009 4.029033511385274e-001 1.002909019566584e+001
1.857354195380838e+009 4.159574954347094e-001 1.089582479354803e+001
1.924756619314700e+009 2.819365763906703e-001 1.204325965191548e+001
1.992159043248561e+009 2.582762811589081e-001 1.311025929550072e+001
2.073041951969194e+009 2.542241637312657e-001 1.435625453444573e+001
2.170101442433955e+009 2.811362992062083e-001 1.589726059071334e+001
2.286572830991667e+009 4.060284267663810e-001 1.803127856340516e+001
2.426338497260922e+009 1.537054541069949e+000 2.240467582478735e+001
2.461279913828235e+009 3.290094897772821e+000 2.466148464795332e+001
2.478750622111892e+009 5.507927513609355e+000 2.595560764602660e+001
2.487485976253721e+009 7.344808425560427e+000 2.632602253132797e+001
2.496221330395549e+009 9.783738971460810e+000 2.600992520960821e+001
2.504956684537378e+009 1.246150453662121e+001 2.432913597251574e+001
2.513692038679206e+009 1.417228479158607e+001 2.097529069851192e+001
2.522427392821035e+009 1.366299702148078e+001 1.709694692311206e+001
2.531162746962863e+009 1.137973307746153e+001 1.445977008675363e+001
2.539898101104692e+009 8.770748424045706e+000 1.347141612933636e+001
2.548633455246521e+009 6.637967844812848e+000 1.352727559160642e+001
2.557368809388349e+009 5.090412432860941e+000 1.404575236291713e+001
2.566104163530178e+009 4.004211125361463e+000 1.471555404023544e+001
2.574839517672006e+009 3.241134968306872e+000 1.540331871457107e+001
2.583574871813835e+009 2.698213056951505e+000 1.606007353182195e+001
2.592310225955663e+009 2.306223814974127e+000 1.667241531138228e+001
2.601045580097492e+009 2.019806142400682e+000 1.724090333694323e+001
2.609780934239320e+009 1.809196410255813e+000 1.777103816631454e+001
2.620263359209515e+009 1.629247559785569e+000 1.836616129780209e+001
2.632842269173748e+009 1.489855211620531e+000 1.903650991565426e+001
2.647936961130827e+009 1.403968497746291e+000 1.980140208415315e+001
2.666050591479322e+009 1.393360036490936e+000 2.069765692326222e+001
2.687786947897517e+009 1.504819638755626e+000 2.179745629347892e+001
2.709523304315711e+009 1.781804722623253e+000 2.299360821766096e+001
2.731259660733905e+009 2.323264804918389e+000 2.437377015473840e+001
2.752996017152100e+009 3.376800813629674e+000 2.603996876950928e+001
2.774732373570294e+009 5.572865112569453e+000 2.800401329628380e+001
2.796468729988488e+009 1.040122471673791e+001 2.934364541842858e+001
2.801902819093037e+009 1.222403552901424e+001 2.911154106746248e+001
2.807336908197585e+009 1.422843972508505e+001 2.836702670940526e+001
2.812770997302134e+009 1.622403715046848e+001 2.694137939835957e+001
2.818205086406682e+009 1.788391009794617e+001 2.476191119056250e+001
2.823639175511231e+009 1.881738063369484e+001 2.197197908272788e+001
2.829073264615779e+009 1.875560320611228e+001 1.896608091206793e+001
2.834507353720327e+009 1.772318548167523e+001 1.624102774440667e+001
2.839941442824876e+009 1.601974355911328e+001 1.415671090512245e+001
2.845375531929424e+009 1.403278933662040e+001 1.281774714230711e+001
2.850809621033973e+009 1.206741755285133e+001 1.213133182716396e+001
2.856243710138521e+009 1.029292452063204e+001 1.192703972639331e+001
2.861677799243070e+009 8.770453323039146e+000 1.204053532907653e+001
2.867111888347618e+009 7.499156120368257e+000 1.234561964551216e+001
2.872545977452167e+009 6.450987480869720e+000 1.275606309401713e+001
2.877980066556715e+009 5.590274873105909e+000 1.321687765557387e+001
2.883414155661264e+009 4.882742261596945e+000 1.369462730824783e+001
2.888848244765812e+009 4.298801953705545e+000 1.416981961156353e+001
2.895369151691270e+009 3.727366859258262e+000 1.472187211351885e+001
2.903194240001821e+009 3.184964940997098e+000 1.534708197607102e+001
2.912584345974481e+009 2.686167825149978e+000 1.603837005217363e+001
2.923852473141673e+009 2.242035385697852e+000 1.678678838471177e+001
2.937374225742303e+009 1.859279284915524e+000 1.758366461379870e+001
2.953600328863060e+009 1.540330854062311e+000 1.842301793571669e+001
2.973071652607967e+009 1.284276952492378e+000 1.930397340574260e+001
2.996437241101857e+009 1.088581634617837e+000 2.023321862621685e+001
3.000000000000000e+009 1.066251598527521e+000 2.036571384881999e+001
