! HyperLynx V9.4.1 SI-SPICE V2015.12.15
# HZ Z  RI R 1.000000e-001
! 
1.000000000000000e+006 4.575242466551588e-003 1.049865472222509e-002
1.177502013025367e+006 4.499756620608864e-003 1.385207619110878e-002
1.355004026050735e+006 4.536890152659368e-003 1.700215414178326e-002
1.532506039076102e+006 4.618830885984560e-003 2.002133878579938e-002
1.745508454706543e+006 4.756571079582029e-003 2.353063871115348e-002
2.001111353463072e+006 4.975582709849058e-003 2.762585293221985e-002
2.307834831970907e+006 5.323736743373631e-003 3.239722489837795e-002
2.675903006180309e+006 5.839741410404465e-003 3.787333636750859e-002
3.117584815231592e+006 6.359038879537993e-003 4.407256321313120e-002
3.647602986093130e+006 6.717957080123883e-003 5.139205876097413e-002
4.283624791126977e+006 6.991113366287594e-003 6.002756360727304e-002
5.046850957167593e+006 6.940513190751308e-003 7.052995690086254e-002
5.810077123208209e+006 6.974077216064134e-003 8.126330589251198e-002
6.725948522456948e+006 7.159208948383955e-003 9.411974113447422e-002
7.824994201555435e+006 7.435680523643452e-003 1.094470563375210e-001
9.143849016473619e+006 7.757695437160673e-003 1.277414888699710e-001
1.072647479437544e+007 8.102638856060352e-003 1.496188804404686e-001
1.262562572785763e+007 8.465173408732296e-003 1.758198286209017e-001
1.490460684803625e+007 8.853403837192686e-003 2.072275417712629e-001
1.718358796821487e+007 9.215340989934373e-003 2.386166069538624e-001
1.991836531242922e+007 9.636441885730807e-003 2.762655169714930e-001
2.320009812548643e+007 1.013968631023694e-002 3.214181779690086e-001
2.713817750115509e+007 1.075101303273052e-002 3.755599331234621e-001
3.186387275195748e+007 1.149569628934140e-002 4.404667805441054e-001
3.753470705292035e+007 1.239325274841687e-002 5.182675900228050e-001
4.320554135388321e+007 1.327798036772365e-002 5.959875409255030e-001
5.001054251503865e+007 1.430309989502896e-002 6.891749840723853e-001
5.817654390842518e+007 1.546325640136748e-002 8.009430706848287e-001
6.797574558048901e+007 1.674795229170236e-002 9.350680930733571e-001
7.973478758696561e+007 1.815094024835762e-002 1.096145057225398e+000
9.384563799473752e+007 1.968430635184724e-002 1.289783858224633e+000
1.107786584840638e+008 2.139470204220018e-002 1.522867456124669e+000
1.277116789733901e+008 2.304977942469759e-002 1.756957046125523e+000
1.480313035605817e+008 2.506155745927510e-002 2.039664089071547e+000
1.724148530652116e+008 2.763473279479962e-002 2.382435003936226e+000
2.016751124707674e+008 3.111125609589183e-002 2.800340944796040e+000
2.367874237574344e+008 3.608431964898129e-002 3.313623707711690e+000
2.789221973014349e+008 4.371920087380148e-002 3.950137813129379e+000
3.210569708454353e+008 5.446540813985854e-002 4.620505457399148e+000
3.716186990982359e+008 7.576929144616532e-002 5.501965182681272e+000
4.322927730015965e+008 1.358965884254519e-001 6.793576249946203e+000
5.051016616856292e+008 5.767195918590831e-001 9.682829282106946e+000
5.233038838566374e+008 1.184105415573776e+000 1.142581917386074e+001
5.415061060276456e+008 3.725919435199868e+000 1.502618833908221e+001
5.506072171131496e+008 8.968433602032979e+000 1.777244419005578e+001
5.528824948845257e+008 1.154791049448471e+001 1.800803300851013e+001
5.551577726559017e+008 1.481692363101717e+001 1.741496219189001e+001
5.574330504272777e+008 1.844665314689722e+001 1.531697457126592e+001
5.597083281986537e+008 2.138033800235337e+001 1.123030402586932e+001
5.619836059700297e+008 2.213219509152929e+001 5.774728008121284e+000
5.631212448557178e+008 2.146737116893564e+001 3.096872029515601e+000
5.642588837414058e+008 2.022528081778381e+001 7.697597685420292e-001
5.653965226270939e+008 1.859986076586342e+001 -1.071277566044388e+000
5.665341615127820e+008 1.679469116008813e+001 -2.395348817659531e+000
5.676718003984700e+008 1.497525255626364e+001 -3.248906043196978e+000
5.688094392841581e+008 1.325147028514073e+001 -3.717061468356295e+000
5.699470781698462e+008 1.168246714408817e+001 -3.892676879869449e+000
5.710847170555342e+008 1.029043473718879e+001 -3.858929501307760e+000
5.722223559412223e+008 9.074720941127630e+000 -3.682755669965358e+000
5.733599948269104e+008 8.022548051635635e+000 -3.414581096720564e+000
5.744976337125984e+008 7.115974021656823e+000 -3.090762801786582e+000
5.758628003754240e+008 6.193469375062474e+000 -2.663894191637040e+000
5.775010003708148e+008 5.283695666122918e+000 -2.133500306443703e+000
5.794668403652837e+008 4.415906813579961e+000 -1.507850159459519e+000
5.818258483586464e+008 3.616123485188184e+000 -8.035118653342512e-001
5.841848563520091e+008 3.007625948644551e+000 -1.632723804593685e-001
5.865438643453717e+008 2.536788661010025e+000 4.118999939619299e-001
5.889028723387344e+008 2.166566108330062e+000 9.267586474733079e-001
5.912618803320971e+008 1.871091910721430e+000 1.387897565601528e+000
5.936208883254597e+008 1.632045386013862e+000 1.802068670082413e+000
5.959798963188224e+008 1.436247598950668e+000 2.175506821663239e+000
5.983389043121851e+008 1.274069896589292e+000 2.513710270399903e+000
6.006979123055477e+008 1.138371224210389e+000 2.821420549616294e+000
6.035287218975829e+008 1.003015728181351e+000 3.156073870619229e+000
6.069256934080252e+008 8.711871086406711e-001 3.515503717193686e+000
6.110020592205558e+008 7.459721993365612e-001 3.896779758787634e+000
6.158936981955926e+008 6.300822720848274e-001 4.296523271447009e+000
6.217636649656369e+008 5.256178033914079e-001 4.711356892957975e+000
6.288076250896899e+008 4.339208089866871e-001 5.138443609448628e+000
6.372603772385534e+008 3.555381922174835e-001 5.576054988077408e+000
6.474036798171897e+008 2.902935745618057e-001 6.024114775816329e+000
6.595756429115533e+008 2.374421423427814e-001 6.484689243751260e+000
6.741819986247896e+008 1.958722139239048e-001 6.962437013860932e+000
6.917096254806732e+008 1.643198561605434e-001 7.465083504894264e+000
7.127427777077335e+008 1.415780098385260e-001 8.004053945038899e+000
7.379825603802059e+008 1.267089087845469e-001 8.595515376572823e+000
7.682702995871728e+008 1.193176505621587e-001 9.262335750315598e+000
8.046155866355330e+008 1.200682643255367e-001 1.003816451582524e+001
8.482299310935652e+008 1.320505541372900e-001 1.097705917838978e+001
9.005671444432039e+008 1.655971583626177e-001 1.218080807446184e+001
9.633718004627703e+008 2.627681749179913e-001 1.390306611699034e+001
1.038737387686250e+009 7.511566562024501e-001 1.723623886173882e+001
1.083956740020338e+009 2.746368248194056e+000 2.217384487492185e+001
1.106566416187382e+009 8.993516628302048e+000 2.791628756279965e+001
1.112218835229143e+009 1.334295548595700e+001 2.933146201671221e+001
1.117871254270904e+009 2.011154465292733e+001 2.893587660051338e+001
1.120697463791784e+009 2.424215711914405e+001 2.703794274564478e+001
1.123523673312665e+009 2.814267074674997e+001 2.336129305088254e+001
1.126349882833545e+009 3.071014457259477e+001 1.792041671826170e+001
1.129176092354425e+009 3.093508280363302e+001 1.163180398156751e+001
1.132002301875306e+009 2.873055319158046e+001 5.971519796070006e+000
1.134828511396186e+009 2.501078782308468e+001 1.983729785177995e+000
1.137654720917067e+009 2.090722750351571e+001 -1.961675106314242e-001
1.140480930437947e+009 1.714691449684480e+001 -9.963897739012222e-001
1.143307139958828e+009 1.400234098268272e+001 -9.352197935419503e-001
1.146133349479708e+009 1.148319448342528e+001 -4.067270815005473e-001
1.148959559000589e+009 9.498575200927769e+000 3.414151962175499e-001
1.151785768521469e+009 7.939282010556352e+000 1.168436049650329e+000
1.154611978042350e+009 6.708498163108780e+000 1.999586322496203e+000
1.157438187563230e+009 5.728989790105560e+000 2.797854759256543e+000
1.160264397084111e+009 4.941773569491358e+000 3.546905615319962e+000
1.163090606604991e+009 4.302558218118166e+000 4.241381633114957e+000
1.165916816125871e+009 3.778210372981301e+000 4.881544140304417e+000
1.168743025646752e+009 3.343868916680640e+000 5.470358678194801e+000
1.171569235167632e+009 2.980755989130962e+000 6.011932411248292e+000
1.174960686592689e+009 2.619147036365159e+000 6.605692627379357e+000
1.179030428302757e+009 2.267829079806468e+000 7.247233156853477e+000
1.183914118354839e+009 1.935241743942631e+000 7.930164844641971e+000
1.189774546417337e+009 1.628677987358707e+000 8.646740729340843e+000
1.196807060092334e+009 1.353632355186197e+000 9.388812477816243e+000
1.205246076502331e+009 1.113424060011123e+000 1.014899788606888e+001
1.215372896194327e+009 9.091531126011238e-001 1.092190208223974e+001
1.227525079824722e+009 7.399637743307532e-001 1.170524997541074e+001
1.242107700181197e+009 6.035260762001662e-001 1.250085698058011e+001
1.259606844608966e+009 4.966204969087504e-001 1.331547278664689e+001
1.280605817922289e+009 4.157283592704973e-001 1.416164852814606e+001
1.305804585898277e+009 3.575793256578869e-001 1.505892604297499e+001
1.336043107469462e+009 3.196822980678230e-001 1.603587488731157e+001
1.372329333354885e+009 3.009860808786835e-001 1.713400045111410e+001
1.415872804417392e+009 3.031051023490524e-001 1.841586676573494e+001
1.468124969692401e+009 3.335456596603873e-001 1.998392396863927e+001
1.530827568022411e+009 4.171293935752403e-001 2.203268825266140e+001
1.606070686018423e+009 6.564281139259879e-001 2.504535379333404e+001
1.696362427613637e+009 1.970894766045839e+000 3.115005228618866e+001
1.741508298411245e+009 6.592654335089318e+000 3.819072755143267e+001
1.752794766110647e+009 1.045801862603998e+001 4.075106734669771e+001
1.764081233810048e+009 1.775403890770944e+001 4.215183853480954e+001
1.769724467659749e+009 2.304199591454809e+001 4.086556201289545e+001
1.775367701509450e+009 2.848253027394170e+001 3.672947419136030e+001
1.781010935359151e+009 3.173695226172725e+001 2.946222753855906e+001
1.786654169208852e+009 3.068462769319872e+001 2.131342639034197e+001
1.792297403058553e+009 2.612872872398981e+001 1.545350840560005e+001
1.797940636908254e+009 2.066111496227173e+001 1.280968760932522e+001
1.803583870757955e+009 1.593998139964971e+001 1.242027080318723e+001
1.809227104607656e+009 1.235256070540116e+001 1.316234628759980e+001
1.814870338457357e+009 9.741615665690103e+000 1.434994873847501e+001
1.820513572307058e+009 7.852836199559531e+000 1.565117338429087e+001
1.826156806156759e+009 6.473780223097319e+000 1.692502771291154e+001
1.831800040006460e+009 5.452045467247729e+000 1.811998804733979e+001
1.837443273856160e+009 4.683237435072328e+000 1.922369926856511e+001
1.844215154475802e+009 3.996391918287761e+000 2.043343605999613e+001
1.852341411219371e+009 3.407407631383615e+000 2.174286817711557e+001
1.862092919311654e+009 2.927581374510602e+000 2.315253359614229e+001
1.873794729022394e+009 2.566267672098908e+000 2.467678334590722e+001
1.887836900675282e+009 2.337620819365633e+000 2.635428186949606e+001
1.904687506658747e+009 2.278037660017485e+000 2.826786808154005e+001
1.921538112642213e+009 2.440740722864977e+000 3.019371094155683e+001
1.938388718625678e+009 2.918361671979412e+000 3.225357411501368e+001
1.955239324609144e+009 4.031607634106678e+000 3.454190964516380e+001
1.972089930592609e+009 6.694345918507558e+000 3.672154112243735e+001
1.976302582088475e+009 7.775911210152104e+000 3.700070556881379e+001
1.980515233584342e+009 9.019960785366422e+000 3.698801087340090e+001
1.984727885080208e+009 1.032176453191823e+001 3.654691932384560e+001
1.988940536576074e+009 1.146103586442117e+001 3.558918791887755e+001
1.993153188071940e+009 1.213888167210095e+001 3.418611229709062e+001
1.997365839567807e+009 1.213383526822120e+001 3.262476571223972e+001
2.001578491063673e+009 1.146760203210732e+001 3.128560454667173e+001
2.005791142559539e+009 1.038591033042322e+001 3.042363339728913e+001
2.010003794055406e+009 9.180153010681886e+000 3.007868722451079e+001
2.014216445551272e+009 8.050488133424272e+000 3.015078810634869e+001
2.018429097047138e+009 7.086250846932945e+000 3.050637973084886e+001
2.022641748543005e+009 6.304355603398088e+000 3.103479773052793e+001
2.026854400038871e+009 5.688328334698602e+000 3.166060064380235e+001
2.031067051534737e+009 5.211511786808275e+000 3.233749329459980e+001
2.035279703030603e+009 4.847572208997086e+000 3.303900363951158e+001
2.039492354526470e+009 4.574141109544581e+000 3.375099081760352e+001
2.043705006022336e+009 4.373435134207024e+000 3.446664109793989e+001
2.048760187817376e+009 4.209563304676915e+000 3.532682466828845e+001
2.054826405971423e+009 4.101218119795249e+000 3.636141737474867e+001
2.062105867756280e+009 4.072028305014806e+000 3.761281127357012e+001
2.070841221898109e+009 4.154757524965576e+000 3.914518203987046e+001
2.081323646868303e+009 4.401005085368998e+000 4.106107763901930e+001
2.093902556832536e+009 4.903872339602254e+000 4.353309601282066e+001
2.108997248789615e+009 5.855658060796533e+000 4.687024300694311e+001
2.127110879138111e+009 7.718762600992569e+000 5.167206227375582e+001
2.148847235556305e+009 1.185672177997776e+001 5.921740125223886e+001
2.170583591974499e+009 2.079936971060149e+001 6.971255360404628e+001
2.192319948392694e+009 4.328000310423823e+001 8.223287779569574e+001
2.203188126601791e+009 6.578560756670274e+001 8.385866187285048e+001
2.208622215706339e+009 8.052101820819081e+001 7.980014493655847e+001
2.214056304810888e+009 9.597691857568820e+001 6.985943344189096e+001
2.219490393915436e+009 1.087089000979251e+002 5.283326374991656e+001
2.224924483019985e+009 1.142393345453870e+002 3.040416709050487e+001
2.230358572124533e+009 1.101796915130018e+002 7.593758938663772e+000
2.235792661229082e+009 9.845426400787839e+001 -1.034821656233598e+001
2.241226750333630e+009 8.344095236406218e+001 -2.131587668776172e+001
2.246660839438179e+009 6.875409628330272e+001 -2.624577563539378e+001
2.252094928542727e+009 5.611397465675160e+001 -2.713647905472810e+001
2.257529017647275e+009 4.588247605608348e+001 -2.573043769546370e+001
2.262963106751824e+009 3.781346005718572e+001 -2.318485275277982e+001
2.268397195856372e+009 3.149582552392354e+001 -2.017423112974821e+001
2.273831284960921e+009 2.653683818279370e+001 -1.706227071361514e+001
2.279265374065469e+009 2.261530094734667e+001 -1.403242324148168e+001
2.285786280990928e+009 1.893552263061027e+001 -1.061962024026780e+001
2.293611369301478e+009 1.559321589558800e+001 -6.904121346979543e+000
2.303001475274138e+009 1.265403545583737e+001 -2.981348140448339e+000
2.312391581246798e+009 1.050776511957740e+001 4.259820364158971e-001
2.321781687219458e+009 8.901353957695639e+000 3.402885459034009e+000
2.331171793192118e+009 7.673269025062583e+000 6.026843352416204e+000
2.340561899164778e+009 6.717405141184301e+000 8.362794074092266e+000
2.349952005137438e+009 5.962166097108840e+000 1.046353222894763e+001
2.359342111110098e+009 5.358043116029212e+000 1.237158280604432e+001
2.368732217082758e+009 4.870042036894499e+000 1.412121623247213e+001
2.380000344249950e+009 4.402714433477985e+000 1.605039681739468e+001
2.393522096850581e+009 3.971991743701140e+000 1.817043704562843e+001
2.409748199971337e+009 3.595122939583586e+000 2.050161269367294e+001
2.429219523716245e+009 3.291839817551899e+000 2.308207948548494e+001
2.452585112210135e+009 3.088168932061226e+000 2.598362876938343e+001
2.480623818402802e+009 3.026737213024527e+000 2.934224041459740e+001
2.514270265834002e+009 3.195869487649490e+000 3.342593736809439e+001
2.554646002751443e+009 3.827152713927978e+000 3.881429358363510e+001
2.603096887052372e+009 5.738966413960863e+000 4.699492531231769e+001
2.651547771353301e+009 1.145086543531487e+001 5.951369779299348e+001
2.675773213503766e+009 1.907002601754985e+001 6.890819893229198e+001
2.699998655654230e+009 3.707940071348607e+001 7.974540401566645e+001
2.712111376729462e+009 5.427819135927221e+001 8.190225271963345e+001
2.724224097804694e+009 7.744433697850380e+001 7.364789824619901e+001
2.730280458342310e+009 8.829819450825360e+001 6.260484329456779e+001
2.736336818879927e+009 9.505269852895144e+001 4.701742349001549e+001
2.742393179417543e+009 9.532116370463515e+001 2.954557921312446e+001
2.748449539955159e+009 8.913309878327557e+001 1.398621246389809e+001
2.754505900492775e+009 7.888642787569761e+001 2.940868339306878e+000
2.760562261030392e+009 6.747829108160916e+001 -3.202180751675051e+000
2.766618621568008e+009 5.685432233128481e+001 -5.468895545677647e+000
2.772674982105624e+009 4.783554675398989e+001 -5.183542100880984e+000
2.778731342643241e+009 4.054069015286484e+001 -3.409700910828203e+000
2.784787703180857e+009 3.478562225635571e+001 -8.515395827851331e-001
2.790844063718473e+009 3.030737664426661e+001 2.070203763995218e+000
2.796900424256089e+009 2.685926975951774e+001 5.120601470942205e+000
2.802956784793706e+009 2.424080281846964e+001 8.176542936690703e+000
2.809013145331322e+009 2.230087824173671e+001 1.117898760770873e+001
2.815069505868938e+009 2.093243134525358e+001 1.410395989643654e+001
2.821125866406554e+009 2.006583002731896e+001 1.694500839528307e+001
2.827182226944171e+009 1.966362048857412e+001 1.970186573117758e+001
2.833238587481787e+009 1.971717399821473e+001 2.237173571489461e+001
2.839294948019403e+009 2.024489414508606e+001 2.494042530028221e+001
2.845351308557019e+009 2.129076706526504e+001 2.737077244475931e+001
2.851407669094636e+009 2.292047141711979e+001 2.958565948970372e+001
2.857464029632252e+009 2.520898546492677e+001 3.144330470083047e+001
2.863520390169868e+009 2.820782649962237e+001 3.270611241191847e+001
2.869576750707484e+009 3.187343685489900e+001 3.301693976104096e+001
2.875633111245101e+009 3.594362098428368e+001 3.192635142897769e+001
2.881689471782717e+009 3.980100443907700e+001 2.905074750577509e+001
2.887745832320333e+009 4.248548433512585e+001 2.440192257029361e+001
2.893802192857949e+009 4.306839139576331e+001 1.868904044425093e+001
2.899858553395566e+009 4.125687606380139e+001 1.315771981038184e+001
2.905914913933182e+009 3.761495597410572e+001 8.918558893717055e+000
2.911971274470798e+009 3.312878050761992e+001 6.417346980349233e+000
2.918027635008414e+009 2.863739352705245e+001 5.487266867081972e+000
2.924083995546031e+009 2.460635382910072e+001 5.700300794561681e+000
2.930140356083647e+009 2.119346012687624e+001 6.635360605658763e+000
2.936196716621263e+009 1.838708886364797e+001 7.978099138558436e+000
2.942253077158879e+009 1.610797537006385e+001 9.523409923614445e+000
2.948309437696496e+009 1.426256781491821e+001 1.114762095920077e+001
2.954365798234112e+009 1.276515534070753e+001 1.278036526044769e+001
2.960422158771728e+009 1.154447540235961e+001 1.438396968893650e+001
2.966478519309344e+009 1.054382790268793e+001 1.594008770198924e+001
2.973746151954484e+009 9.571962217819797e+000 1.773506664949013e+001
2.982467311128651e+009 8.660314725268618e+000 1.978437009197030e+001
2.992932702137651e+009 7.840625784822056e+000 2.210627984280231e+001
3.000000000000000e+009 7.416518002058107e+000 2.360141507350724e+001
