! BLM18PG471SN1
# Hz S RI R 50
!Freq.(Hz) S11(Real) S11(Imag) S21(Real) S21(Imag) S12(Real) S12(Imag) S22(Real) S22(Imag)
1000000.0 0.04434575795881444 0.17206486713792585 0.9556542420411857 -0.17206486713792585 0.9556542420411857 -0.17206486713792585 0.04434575795881444 0.17206486713792585
1020217.5806586457 0.04599551841528466 0.17511327863446913 0.9540044815847153 -0.17511327863446913 0.9540044815847153 -0.17511327863446913 0.04599551841528466 0.17511327863446913
1040843.9118849806 0.047703904477050356 0.17819902727757458 0.9522960955229496 -0.17819902727757456 0.9522960955229496 -0.17819902727757456 0.047703904477050356 0.17819902727757458
1061887.2576265757 0.049472654794902135 0.18132159025494846 0.9505273452050979 -0.18132159025494846 0.9505273452050979 -0.18132159025494846 0.049472654794902135 0.18132159025494846
1083356.0489080292 0.051303532934418174 0.18448037609419135 0.9486964670655817 -0.18448037609419135 0.9486964670655817 -0.18448037609419135 0.051303532934418174 0.18448037609419135
1105258.8872088592 0.05319832550479818 0.18767472151330292 0.9468016744952018 -0.18767472151330292 0.9468016744952018 -0.18767472151330292 0.05319832550479818 0.18767472151330292
1127604.5479096894 0.05515884007072924 0.19090388824304663 0.9448411599292706 -0.19090388824304663 0.9448411599292706 -0.19090388824304663 0.05515884007072924 0.19090388824304663
1150401.9838081095 0.057186902836329864 0.1941670598320894 0.9428130971636702 -0.1941670598320894 0.9428130971636702 -0.1941670598320894 0.057186902836329864 0.1941670598320894
1173660.328705616 0.059284356090381005 0.19746333844707495 0.9407156439096189 -0.19746333844707495 0.9407156439096189 -0.19746333844707495 0.059284356090381005 0.19746333844707495
1197388.9010670746 0.06145305540231607 0.2007917416810902 0.938546944597684 -0.20079174168109024 0.938546944597684 -0.20079174168109024 0.06145305540231607 0.2007917416810902
1221597.2077541656 0.06369486655881411 0.20415119938533402 0.936305133441186 -0.20415119938533405 0.936305133441186 -0.20415119938533405 0.06369486655881411 0.20415119938533402
1246294.947834312 0.06601166223133571 0.20754055054019488 0.9339883377686643 -0.20754055054019485 0.9339883377686643 -0.20754055054019485 0.06601166223133571 0.20754055054019488
1271492.016466615 0.06840531836556961 0.21095854018337987 0.9315946816344305 -0.21095854018337987 0.9315946816344305 -0.21095854018337987 0.06840531836556961 0.21095854018337987
1297198.5088663532 0.07087771028453013 0.21440381641420161 0.9291222897154698 -0.21440381641420161 0.9291222897154698 -0.21440381641420161 0.07087771028453013 0.21440381641420161
1323424.7243496338 0.07343070849797274 0.21787492749461054 0.9265692915020272 -0.21787492749461054 0.9265692915020272 -0.21787492749461054 0.07343070849797274 0.21787492749461054
1350181.1704598186 0.07606617421188962 0.22137031906905028 0.9239338257881103 -0.22137031906905028 0.9239338257881103 -0.22137031906905028 0.07606617421188962 0.22137031906905028
1377478.5671773748 0.07878595453311693 0.22488833152669238 0.9212140454668831 -0.22488833152669238 0.9212140454668831 -0.22488833152669238 0.07878595453311693 0.22488833152669238
1405327.8512148394 0.08159187736554241 0.22842719753106236 0.9184081226344576 -0.22842719753106236 0.9184081226344576 -0.22842719753106236 0.08159187736554241 0.22842719753106236
1433740.1803986167 0.08448574599605028 0.23198503974347728 0.9155142540039496 -0.2319850397434773 0.9155142540039496 -0.2319850397434773 0.08448574599605028 0.23198503974347728
1462726.9381393674 0.0874693333701967 0.2355598687680702 0.9125306666298033 -0.2355598687680702 0.9125306666298033 -0.2355598687680702 0.0874693333701967 0.2355598687680702
1492299.737992774 0.09054437605966309 0.23914958134742859 0.909455623940337 -0.23914958134742859 0.909455623940337 -0.23914958134742859 0.09054437605966309 0.23914958134742859
1522470.428312519 0.09371256792581038 0.24275195883903802 0.9062874320741897 -0.24275195883903802 0.9062874320741897 -0.24275195883903802 0.09371256792581038 0.24275195883903802
1553251.0969973304 0.09697555348613353 0.24636466600372797 0.9030244465138665 -0.24636466600372797 0.9030244465138665 -0.24636466600372797 0.09697555348613353 0.24636466600372797
1584654.076334004 0.10033492099311347 0.2499852501381749 0.8996650790068864 -0.24998525013817488 0.8996650790068864 -0.24998525013817488 0.10033492099311347 0.2499852501381749
1616691.9479383389 0.10379219523785924 0.2536111405841755 0.8962078047621408 -0.2536111405841755 0.8962078047621408 -0.2536111405841755 0.10379219523785924 0.2536111405841755
1649377.5477959653 0.10734883009403036 0.2572396486478345 0.8926511699059697 -0.2572396486478345 0.8926511699059697 -0.2572396486478345 0.10734883009403036 0.2572396486478345
1682723.9714050898 0.11100620082081679 0.260867967961998 0.8889937991791831 -0.260867967961998 0.8889937991791831 -0.260867967961998 0.11100620082081679 0.260867967961998
1716744.5790232092 0.1147655961472025 0.2644931753251467 0.8852344038527975 -0.2644931753251467 0.8852344038527975 -0.2644931753251467 0.1147655961472025 0.2644931753251467
1751453.001019904 0.11862821016335046 0.2681122320495424 0.8813717898366494 -0.2681122320495423 0.8813717898366494 -0.2681122320495423 0.11862821016335046 0.2681122320495424
1786863.143337851 0.12259513404867299 0.27172198585064095 0.8774048659513269 -0.27172198585064095 0.8774048659513269 -0.27172198585064095 0.12259513404867299 0.27172198585064095
1822989.1930642454 0.1266673476699807 0.27531917330862354 0.8733326523300194 -0.27531917330862354 0.8733326523300194 -0.27531917330862354 0.1266673476699807 0.27531917330862354
1859845.6241148617 0.13084571108698798 0.27890042293132616 0.8691542889130122 -0.27890042293132616 0.8691542889130122 -0.27890042293132616 0.13084571108698798 0.27890042293132616
1897447.2030330333 0.13513095600636435 0.2824622588458446 0.8648690439936358 -0.2824622588458446 0.8648690439936358 -0.2824622588458446 0.13513095600636435 0.2824622588458446
1935808.994905876 0.13952367722939862 0.2860011051436215 0.8604763227706014 -0.2860011051436215 0.8604763227706014 -0.2860011051436215 0.13952367722939862 0.2860011051436215
1974946.3694001175 0.14402432414215277 0.2895132909008771 0.8559756758578473 -0.2895132909008771 0.8559756758578473 -0.2895132909008771 0.14402432414215277 0.2895132909008771
2014875.0069199642 0.1486331923006576 0.292995055892811 0.8513668076993425 -0.292995055892811 0.8513668076993425 -0.292995055892811 0.1486331923006576 0.292995055892811
2055610.904889458 0.15335041516718712 0.2964425570160657 0.8466495848328129 -0.2964425570160657 0.8466495848328129 -0.2964425570160657 0.15335041516718712 0.2964425570160657
2097170.3841618528 0.15817595605688173 0.299851875429505 0.8418240439431183 -0.299851875429505 0.8418240439431183 -0.299851875429505 0.15817595605688173 0.299851875429505
2139570.0955585684 0.16310960035690159 0.3032190244184333 0.8368903996430984 -0.3032190244184333 0.8368903996430984 -0.3032190244184333 0.16310960035690159 0.3032190244184333
2182827.0265403506 0.16815094808281483 0.30653995798197436 0.8318490519171853 -0.30653995798197436 0.8318490519171853 -0.30653995798197436 0.16815094808281483 0.30653995798197436
2226958.508013302 0.17329940683899167 0.3098105801374674 0.8267005931610084 -0.3098105801374674 0.8267005931610084 -0.3098105801374674 0.17329940683899167 0.3098105801374674
2271982.2212725184 0.1785541852513123 0.3130267549294618 0.8214458147486877 -0.3130267549294618 0.8214458147486877 -0.3130267549294618 0.1785541852513123 0.3130267549294618
2317916.205086105 0.18391428694143813 0.3161843171242381 0.8160857130585619 -0.3161843171242381 0.8160857130585619 -0.3161843171242381 0.18391428694143813 0.3161843171242381
2364778.8629224156 0.1893785051121763 0.3192790835638099 0.8106214948878236 -0.3192790835638099 0.8106214948878236 -0.3192790835638099 0.1893785051121763 0.3192790835638099
2412588.9703234104 0.19494541781302918 0.3223068651461434 0.8050545821869708 -0.3223068651461434 0.8050545821869708 -0.3223068651461434 0.19494541781302918 0.3223068651461434
2461365.682427083 0.2006133839537984 0.32526347939092026 0.7993866160462015 -0.32526347939092026 0.7993866160462015 -0.32526347939092026 0.2006133839537984 0.32526347939092026
2511128.5416419753 0.20638054013207796 0.32814476354268757 0.7936194598679219 -0.32814476354268757 0.7936194598679219 -0.32814476354268757 0.20638054013207796 0.32814476354268757
2561897.48547685 0.21224479833756796 0.33094658815573863 0.7877552016624321 -0.3309465881557387 0.7877552016624321 -0.3309465881557387 0.21224479833756796 0.33094658815573863
2613692.85452866 0.2182038445923554 0.3336648710976953 0.7817961554076446 -0.33366487109769527 0.7817961554076446 -0.33366487109769527 0.2182038445923554 0.3336648710976953
2666535.4006320196 0.22425513858162838 0.33629559190159064 0.7757448614183717 -0.33629559190159064 0.7757448614183717 -0.33629559190159064 0.22425513858162838 0.33629559190159064
2720446.295173432 0.23039591432370024 0.3388348063894153 0.7696040856762998 -0.3388348063894154 0.7696040856762998 -0.3388348063894154 0.23039591432370024 0.3388348063894153
2775447.137573615 0.2366231819217685 0.3412786614837087 0.7633768180782315 -0.3412786614837087 0.7633768180782315 -0.3412786614837087 0.2366231819217685 0.3412786614837087
2831559.963941318 0.24293373043251734 0.34362341011795267 0.7570662695674827 -0.34362341011795267 0.7570662695674827 -0.34362341011795267 0.24293373043251734 0.34362341011795267
2888807.255902094 0.24932413187856506 0.34586542615139504 0.7506758681214349 -0.34586542615139504 0.7506758681214349 -0.34586542615139504 0.24932413187856506 0.34586542615139504
2947211.9496055758 0.2557907464229271 0.3480012191895965 0.744209253577073 -0.34800121918959653 0.744209253577073 -0.34800121918959653 0.2557907464229271 0.3480012191895965
3006797.4449148513 0.2623297287141682 0.3500274492085605 0.7376702712858317 -0.3500274492085605 0.7376702712858317 -0.3500274492085605 0.2623297287141682 0.3500274492085605
3067587.6147816274 0.2689370354009026 0.35194094087788985 0.7310629645990973 -0.35194094087788985 0.7310629645990973 -0.35194094087788985 0.2689370354009026 0.35194094087788985
3129606.8148109377 0.2756084338038261 0.3537386974770689 0.7243915661961741 -0.35373869747706893 0.7243915661961741 -0.35373869747706893 0.2756084338038261 0.3537386974770689
3192879.893019226 0.2823395117227124 0.3554179142987999 0.7176604882772877 -0.3554179142987999 0.7176604882772877 -0.3554179142987999 0.2823395117227124 0.3554179142987999
3257432.1997897103 0.28912568834488234 0.35697599143436237 0.7108743116551176 -0.35697599143436237 0.7108743116551176 -0.35697599143436237 0.28912568834488234 0.35697599143436237
3323289.598029029 0.2959622262107279 0.35841054583825205 0.7040377737892722 -0.3584105458382521 0.7040377737892722 -0.3584105458382521 0.2959622262107279 0.35841054583825205
3390478.4735292196 0.3028442441810961 0.3597194225729126 0.6971557558189038 -0.3597194225729127 0.6971557558189038 -0.3597194225729127 0.3028442441810961 0.3597194225729126
3459025.745539199 0.30976673134087457 0.3609007051391916 0.6902332686591256 -0.36090070513919165 0.6902332686591256 -0.36090070513919165 0.30976673134087457 0.3609007051391916
3528958.8775499705 0.3167245617631234 0.36195272480418783 0.6832754382368764 -0.36195272480418783 0.6832754382368764 -0.36195272480418783 0.3167245617631234 0.36195272480418783
3600305.8882978815 0.323712510048756 0.3628740688453898 0.6762874899512439 -0.3628740688453898 0.6762874899512439 -0.3628740688453898 0.323712510048756 0.3628740688453898
3673095.3629903416 0.330725267548182 0.3636635876383128 0.669274732451818 -0.3636635876383128 0.669274732451818 -0.3636635876383128 0.330725267548182 0.3636635876383128
3747356.4647584967 0.3377574591636998 0.364320400524182 0.6622425408363002 -0.364320400524182 0.6622425408363002 -0.364320400524182 0.3377574591636998 0.364320400524182
3823118.9463414503 0.3448036606248392 0.36484390040441694 0.6551963393751609 -0.36484390040441694 0.6551963393751609 -0.36484390040441694 0.3448036606248392 0.36484390040441694
3900413.1620067055 0.3518584161234377 0.3652337570196425 0.6481415838765621 -0.3652337570196425 0.6481415838765621 -0.3652337570196425 0.3518584161234377 0.3652337570196425
3979270.0797116193 0.35891625619110357 0.36548991888252536 0.6410837438088965 -0.36548991888252536 0.6410837438088965 -0.36548991888252536 0.35891625619110357 0.36548991888252536
4059721.293510725 0.3659717156988948 0.3656126138457392 0.6340282843011051 -0.3656126138457392 0.6340282843011051 -0.3656126138457392 0.3659717156988948 0.3656126138457392
4141799.0362139 0.3730193518576415 0.3656023482986478 0.6269806481423584 -0.36560234829864774 0.6269806481423584 -0.36560234829864774 0.3730193518576415 0.3656023482986478
4225536.192300457 0.3800537620973196 0.3654599049986502 0.6199462379026803 -0.36545990499865016 0.6199462379026803 -0.36545990499865016 0.3800537620973196 0.3654599049986502
4310966.311094318 0.3870696017052965 0.3651863395554145 0.6129303982947035 -0.3651863395554145 0.6129303982947035 -0.3651863395554145 0.3870696017052965 0.3651863395554145
4398123.620205573 0.39406160110606125 0.3647829755982276 0.6059383988939389 -0.36478297559822753 0.6059383988939389 -0.36478297559822753 0.39406160110606125 0.3647829755982276
4487043.0392437745 0.4010245826691747 0.36425139866824946 0.5989754173308253 -0.36425139866824946 0.5989754173308253 -0.36425139866824946 0.4010245826691747 0.36425139866824946
4577760.193808502 0.4079534769375794 0.36359344888842293 0.5920465230624207 -0.36359344888842293 0.5920465230624207 -0.36359344888842293 0.4079534769375794 0.36359344888842293
4670311.429762763 0.41484333817495556 0.3628112124739851 0.5851566618250443 -0.3628112124739851 0.5851566618250443 -0.3628112124739851 0.41484333817495556 0.3628112124739851
4764733.827794987 0.4216893591384424 0.36190701215584714 0.5783106408615576 -0.3619070121558471 0.5783106408615576 -0.3619070121558471 0.4216893591384424 0.36190701215584714
4861065.218275411 0.42848688499157406 0.3608833965974075 0.5715131150084259 -0.3608833965974075 0.5715131150084259 -0.3608833965974075 0.42848688499157406 0.3608833965974075
4959344.196412832 0.4352314262816125 0.35974312889257604 0.5647685737183876 -0.35974312889257604 0.5647685737183876 -0.35974312889257604 0.4352314262816125 0.35974312889257604
5059610.137717796 0.44191867091541337 0.3584891742388058 0.5580813290845866 -0.3584891742388058 0.5580813290845866 -0.3584891742388058 0.44191867091541337 0.3584891742388058
5161903.213778406 0.448544495078382 0.35712468688373433 0.551455504921618 -0.35712468688373433 0.551455504921618 -0.35712468688373433 0.448544495078382 0.35712468688373433
5266264.4083550945 0.45510497305181435 0.35565299644757453 0.5448950269481857 -0.35565299644757453 0.5448950269481857 -0.35565299644757453 0.45510497305181435 0.35565299644757453
5372735.53380077 0.4615963858947908 0.35407759372567454 0.5384036141052093 -0.3540775937256745 0.5384036141052093 -0.3540775937256745 0.4615963858947908 0.35407759372567454
5481359.247812959 0.4680152289676611 0.3524021160766926 0.5319847710323387 -0.3524021160766926 0.5319847710323387 -0.3524021160766926 0.4680152289676611 0.3524021160766926
5592179.070524632 0.4743582182848597 0.3506303325016582 0.5256417817151403 -0.3506303325016582 0.5256417817151403 -0.3506303325016582 0.4743582182848597 0.3506303325016582
5705239.401940555 0.48062229569518544 0.3487661285178405 0.5193777043048144 -0.34876612851784045 0.5193777043048144 -0.34876612851784045 0.48062229569518544 0.3487661285178405
5820585.5397261735 0.4868046328976517 0.34681349092893377 0.5131953671023484 -0.34681349092893377 0.5131953671023484 -0.34681349092893377 0.4868046328976517 0.34681349092893377
5938263.697356135 0.4929026343104154 0.34477649258963794 0.5070973656895844 -0.3447764925896379 0.5070973656895844 -0.3447764925896379 0.4929026343104154 0.34477649258963794
6058321.022629741 0.4989139388190707 0.34265927725839446 0.5010860611809295 -0.3426592772583945 0.5010860611809295 -0.3426592772583945 0.4989139388190707 0.34265927725839446
6180805.616560728 0.5048364204386075 0.34046604462692076 0.4951635795613925 -0.34046604462692087 0.4951635795613925 -0.34046604462692087 0.5048364204386075 0.34046604462692076
6305766.552648956 0.5106681879305828 0.33820103560939446 0.4893318120694171 -0.33820103560939435 0.4893318120694171 -0.33820103560939435 0.5106681879305828 0.33820103560939446
6433253.896541728 0.5164075834234177 0.3358685179677798 0.48359241657658225 -0.3358685179677797 0.48359241657658225 -0.3358685179677797 0.5164075834234177 0.3358685179677798
6563318.726092606 0.5220531800892392 0.33347277234299694 0.4779468199107609 -0.33347277234299694 0.4779468199107609 -0.33347277234299694 0.5220531800892392 0.33347277234299694
6696013.151825785 0.5276037789352833 0.3310180787545128 0.4723962210647168 -0.3310180787545128 0.4723962210647168 -0.3310180787545128 0.5276037789352833 0.3310180787545128
6831390.3378141755 0.5330584047715772 0.3285087036236042 0.466941595228423 -0.3285087036236042 0.466941595228423 -0.3285087036236042 0.5330584047715772 0.3285087036236042
6969504.522979628 0.538416301419433 0.3259488873681203 0.4615836985805671 -0.32594888736812033 0.4615836985805671 -0.32594888736812033 0.538416301419433 0.3259488873681203
7110411.042823766 0.5436769262272402 0.32334283260914987 0.45632307377276 -0.32334283260914987 0.45632307377276 -0.32334283260914987 0.5436769262272402 0.32334283260914987
7254166.351598182 0.5488399439611822 0.3206946930226781 0.45116005603881787 -0.32069469302267806 0.45116005603881787 -0.32069469302267806 0.5488399439611822 0.3206946930226781
7400828.044922853 0.5539052201388587 0.31800856286218776 0.4460947798611414 -0.3180085628621878 0.4460947798611414 -0.3180085628621878 0.5539052201388587 0.31800856286218776
7550454.882861849 0.5588728138734413 0.3152884671712836 0.4411271861265587 -0.3152884671712836 0.4411271861265587 -0.3152884671712836 0.5588728138734413 0.3152884671712836
7703106.813465575 0.5637429702949708 0.31253835269888214 0.43625702970502933 -0.312538352698882 0.43625702970502933 -0.312538352698882 0.5637429702949708 0.31253835269888214
7858844.9967889795 0.5685161126137994 0.30976207952334517 0.4314838873862005 -0.30976207952334517 0.4314838873862005 -0.30976207952334517 0.5685161126137994 0.30976207952334517
8017731.829395356 0.5731928338890526 0.3069634133862137 0.4268071661109473 -0.30696341338621363 0.4268071661109473 -0.30696341338621363 0.5731928338890526 0.3069634133862137
8179830.96935555 0.5777738885624008 0.30414601873092095 0.42222611143759925 -0.3041460187309209 0.42222611143759925 -0.3041460187309209 0.5777738885624008 0.30414601873092095
8345207.361752584 0.5822601838144713 0.3013134524370976 0.4177398161855287 -0.3013134524370976 0.4177398161855287 -0.3013134524370976 0.5822601838144713 0.3013134524370976
8513927.264701942 0.5866527707979586 0.2984691582367978 0.4133472292020415 -0.2984691582367978 0.4133472292020415 -0.2984691582367978 0.5866527707979586 0.2984691582367978
8686058.275897898 0.5909528357979661 0.2956164617952108 0.40904716420203396 -0.2956164617952108 0.40904716420203396 -0.2956164617952108 0.5909528357979661 0.2956164617952108
8861669.359696563 0.5951616913664213 0.29275856643517423 0.40483830863357867 -0.29275856643517423 0.40483830863357867 -0.29275856643517423 0.5951616913664213 0.29275856643517423
9040830.87474648 0.5992807674735879 0.28989854948203875 0.40071923252641184 -0.28989854948203875 0.40071923252641184 -0.28989854948203875 0.5992807674735879 0.28989854948203875
9223614.602177842 0.6033116027158147 0.28703935920317714 0.39668839728418526 -0.28703935920317714 0.39668839728418526 -0.28703935920317714 0.6033116027158147 0.28703935920317714
9410093.774361636 0.6072558356147765 0.28418381231462553 0.3927441643852236 -0.2841838123146256 0.3927441643852236 -0.2841838123146256 0.6072558356147765 0.28418381231462553
