!Murata Part Number: GRM188R61A226ME15
!These Parameters are Measured in Series Mode Connection
!       o--ll--o
!Port1            Port2
!       o------o
!Operation Temp=25[degC], DC Bias Voltage=0[V]
!Freq. Start=100[Hz] Stop=6[GHz], 401[Steps]
!Data Generated on Nov 6, 2017
# Hz S RI R 50
!Freq.(Hz) S11(Real) S11(Imag) S21(Real) S21(Imag) S12(Real) S12(Imag) S22(Real) S22(Imag)
100.0 0.5532910498254594 -0.49117701514171147 0.44670895017454065 0.49117701514171147 0.44670895017454065 0.49117701514171147 0.5532910498254594 -0.49117701514171147
104.57921513303334 0.5314880131896528 -0.49303959063349906 0.4685119868103471 0.49303959063349906 0.4685119868103471 0.49303959063349906 0.5314880131896528 -0.49303959063349906
109.3681223784127 0.5095631330210872 -0.49394455929873554 0.490436866978913 0.49394455929873554 0.490436866978913 0.49394455929873554 0.5095631330210872 -0.49394455929873554
114.3763239890794 0.4876018347388894 -0.49388336974806013 0.5123981652611104 0.49388336974806013 0.5123981652611104 0.49388336974806013 0.4876018347388894 -0.49388336974806013
119.61386192579457 0.4656900353779978 -0.49285702112925517 0.5343099646220022 0.49285702112925517 0.5343099646220022 0.49285702112925517 0.4656900353779978 -0.49285702112925517
125.09123799230618 0.443912777782519 -0.49087602183002643 0.556087222217481 0.49087602183002643 0.556087222217481 0.49087602183002643 0.443912777782519 -0.49087602183002643
130.8194348925486 0.42235289744721904 -0.4879601179836531 0.577647102552781 0.4879601179836531 0.577647102552781 0.4879601179836531 0.42235289744721904 -0.4879601179836531
136.8099382520969 0.40108976640594185 -0.4841378044733435 0.5989102335940584 0.4841378044733435 0.5989102335940584 0.4841378044733435 0.40108976640594185 -0.4841378044733435
143.0747596480305 0.3801981540996292 -0.47944564056361644 0.6198018459003707 0.47944564056361644 0.6198018459003707 0.47944564056361644 0.3801981540996292 -0.47944564056361644
149.6264606933842 0.35974723855817436 -0.47392740016171214 0.6402527614418256 0.47392740016171214 0.6402527614418256 0.47392740016171214 0.35974723855817436 -0.47392740016171214
156.47817822447783 0.3397997930512258 -0.4676330925393069 0.6602002069487741 0.4676330925393069 0.6602002069487741 0.4676330925393069 0.3397997930512258 -0.4676330925393069
163.643650641628 0.3204115642600101 -0.4606178928338171 0.67958843573999 0.4606178928338171 0.67958843573999 0.4606178928338171 0.3204115642600101 -0.4606178928338171
171.13724545605763 0.30163084868483453 -0.4529410227234635 0.6983691513151654 0.4529410227234635 0.6983691513151654 0.4529410227234635 0.30163084868483453 -0.4529410227234635
178.97398809823787 0.28349826508308545 -0.44466462046034055 0.7165017349169146 0.44466462046034055 0.7165017349169146 0.44466462046034055 0.28349826508308545 -0.44466462046034055
187.1695920454257 0.26604671278507674 -0.43585263625306153 0.7339532872149233 0.43585263625306153 0.7339532872149233 0.43585263625306153 0.26604671278507674 -0.43585263625306153
195.74049032880657 0.24930149917578837 -0.4265697842420686 0.7506985008242116 0.4265697842420686 0.7506985008242116 0.4265697842420686 0.24930149917578837 -0.4265697842420686
204.70386848341695 0.23328061471476264 -0.41688057650260774 0.7667193852852373 0.41688057650260774 0.7667193852852373 0.41688057650260774 0.23328061471476264 -0.41688057650260774
214.0776990069143 0.21799513068798226 -0.40684845815302684 0.7820048693120178 0.40684845815302684 0.7820048693120178 0.40684845815302684 0.21799513068798226 -0.40684845815302684
223.88077739628844 0.2034496933927896 -0.3965350562159671 0.7965503066072104 0.3965350562159671 0.7965503066072104 0.3965350562159671 0.2034496933927896 -0.3965350562159671
234.132759834772 0.1896430884809566 -0.38599954878335513 0.8103569115190434 0.38599954878335513 0.8103569115190434 0.38599954878335513 0.1896430884809566 -0.38599954878335513
244.85420260451448 0.1765688504748071 -0.375298155585831 0.8234311495251929 0.375298155585831 0.8234311495251929 0.375298155585831 0.1765688504748071 -0.375298155585831
256.06660330404856 0.1642158947300122 -0.3644837464738397 0.8357841052699879 0.3644837464738397 0.8357841052699879 0.3644837464738397 0.1642158947300122 -0.3644837464738397
267.792443953192 0.15256915203726992 -0.35360556069139665 0.8474308479627302 0.35360556069139665 0.8474308479627302 0.35360556069139665 0.15256915203726992 -0.35360556069139665
280.0552360718164 0.1416101893399472 -0.3427090271860528 0.8583898106600527 0.3427090271860528 0.8583898106600527 0.3427090271860528 0.1416101893399472 -0.3427090271860528
292.87956782286926 0.13131780343801075 -0.33183567449956203 0.8686821965619892 0.33183567449956203 0.8686821965619892 0.33183567449956203 0.13131780343801075 -0.33183567449956203
306.2911533141767 0.12166857784050486 -0.3210231179209196 0.8783314221594953 0.3210231179209196 0.8783314221594953 0.3210231179209196 0.12166857784050486 -0.3210231179209196
320.3168841578819 0.11263739596324601 -0.31030511142216116 0.887362604036754 0.31030511142216116 0.887362604036754 0.31030511142216116 0.11263739596324601 -0.31030511142216116
334.9848833909005 0.10419790654196673 -0.29971165228858593 0.8958020934580334 0.29971165228858593 0.8958020934580334 0.29971165228858593 0.10419790654196673 -0.29971165228858593
350.32456186451077 0.09632293938837334 -0.28926912715018566 0.9036770606116268 0.28926912715018566 0.9036770606116268 0.28926912715018566 0.09632293938837334 -0.28926912715018566
366.36667721614316 0.08898487144201309 -0.2790004891826936 0.911015128557987 0.2790004891826936 0.911015128557987 0.2790004891826936 0.08898487144201309 -0.2790004891826936
383.1433955416162 0.08215594447979285 -0.268925457455992 0.9178440555202072 0.268925457455992 0.9178440555202072 0.268925457455992 0.08215594447979285 -0.268925457455992
400.68835589147574 0.07580853687428572 -0.25906073066816415 0.9241914631257145 0.25906073066816415 0.9241914631257145 0.25906073066816415 0.07580853687428572 -0.25906073066816415
419.03673772076064 0.06991539249129441 -0.24942020874188361 0.9300846075087057 0.24942020874188361 0.9300846075087057 0.24942020874188361 0.06991539249129441 -0.24942020874188361
438.225331427439 0.0644498102419091 -0.24001521692464484 0.935550189758091 0.24001521692464484 0.935550189758091 0.24001521692464484 0.0644498102419091 -0.24001521692464484
458.2926121209498 0.0593857980099334 -0.23085472809318963 0.9406142019900665 0.23085472809318963 0.9406142019900665 0.23085472809318963 0.0593857980099334 -0.23085472809318963
479.2788167687661 0.0546981947136341 -0.22194557989868083 0.945301805286366 0.22194557989868083 0.945301805286366 0.22194557989868083 0.0546981947136341 -0.22194557989868083
501.22602487566456 0.05036276417659321 -0.21329268419794312 0.9496372358234068 0.21329268419794312 0.9496372358234068 0.21329268419794312 0.05036276417659321 -0.21329268419794312
524.1782428574726 0.04635626431390003 -0.20489922690110074 0.9536437356861 0.20489922690110074 0.9536437356861 0.20489922690110074 0.04635626431390003 -0.20489922690110074
548.1814922784702 0.04265649491736975 -0.19676685693626905 0.9573435050826303 0.19676685693626905 0.9573435050826303 0.19676685693626905 0.04265649491736975 -0.19676685693626905
573.2839021293739 0.039242327070232785 -0.1888958634996161 0.9607576729297673 0.1888958634996161 0.9607576729297673 0.1888958634996161 0.039242327070232785 -0.1888958634996161
599.5358053309263 0.03609371695500166 -0.18128534113724276 0.9639062830449985 0.18128534113724276 0.9639062830449985 0.18128534113724276 0.03609371695500166 -0.18128534113724276
626.9898396565933 0.033191706550139935 -0.17393334250694129 0.9668082934498601 0.17393334250694129 0.9668082934498601 0.17393334250694129 0.033191706550139935 -0.17393334250694129
655.7010532767296 0.030518413449906124 -0.16683701890505004 0.9694815865500939 0.16683701890505004 0.9694815865500939 0.16683701890505004 0.030518413449906124 -0.16683701890505004
685.7270151358366 0.028057011792525344 -0.15999274882710174 0.9719429882074746 0.15999274882710174 0.9719429882074746 0.15999274882710174 0.028057011792525344 -0.15999274882710174
717.1279303842347 0.025791706047687865 -0.15339625497003828 0.9742082939523121 0.15339625497003828 0.9742082939523121 0.15339625497003828 0.025791706047687865 -0.15339625497003828
749.9667610955984 0.023707699196837996 -0.14704271018631332 0.976292300803162 0.14704271018631332 0.976292300803162 0.14704271018631332 0.023707699196837996 -0.14704271018631332
784.3093525124082 0.021791156639352705 -0.1409268329727789 0.9782088433606472 0.1409268329727789 0.9782088433606472 0.1409268329727789 0.021791156639352705 -0.1409268329727789
820.2245650724522 0.020029166974439173 -0.1350429731252858 0.9799708330255609 0.1350429731252858 0.9799708330255609 0.1350429731252858 0.020029166974439173 -0.1350429731252858
857.7844124811068 0.01840970064194524 -0.1293851882179202 0.9815902993580549 0.1293851882179202 0.9815902993580549 0.1293851882179202 0.01840970064194524 -0.1293851882179202
897.0642061062428 0.016921567254596155 -0.12394731157744643 0.9830784327454041 0.12394731157744643 0.9830784327454041 0.12394731157744643 0.016921567254596155 -0.12394731157744643
938.1427059852851 0.015554372318657262 -0.11872301242192894 0.9844456276813428 0.11872301242192894 0.9844456276813428 0.11872301242192894 0.015554372318657262 -0.11872301242192894
981.102278747212 0.014298473918837776 -0.1137058488202146 0.9857015260811621 0.1137058488202146 0.9857015260811621 0.1137058488202146 0.014298473918837776 -0.1137058488202146
1026.0290627661395 0.013144939835559186 -0.10888931410814953 0.9868550601644408 0.10888931410814953 0.9868550601644408 0.10888931410814953 0.013144939835559186 -0.10888931410814953
1073.0131408776467 0.012085505467692971 -0.10426687736989927 0.9879144945323067 0.10426687736989927 0.9879144945323067 0.10426687736989927 0.012085505467692971 -0.10426687736989927
1122.1487210041523 0.011112532850742741 -0.09983201856010383 0.9888874671492573 0.09983201856010383 0.9888874671492573 0.09983201856010383 0.011112532850742741 -0.09983201856010383
1173.5343250515148 0.010218970988462854 -0.09557825880619665 0.9897810290115372 0.09557825880619665 0.9897810290115372 0.09557825880619665 0.010218970988462854 -0.09557825880619665
1227.2729864556143 0.009398317654360918 -0.09149918639123462 0.9906016823456392 0.09149918639123462 0.9906016823456392 0.09149918639123462 0.009398317654360918 -0.09149918639123462
1283.4724567750195 0.008644582767747716 -0.08758847887710508 0.9913554172322522 0.08758847887710508 0.9913554172322522 0.08758847887710508 0.008644582767747716 -0.08758847887710508
1342.245421743976 0.00795225340631104 -0.0838399217869888 0.9920477465936892 0.0838399217869888 0.9920477465936892 0.0838399217869888 0.00795225340631104 -0.0838399217869888
1403.7097272189235 0.00731626048292075 -0.08024742422536008 0.9926837395170792 0.08024742422536008 0.9926837395170792 0.08024742422536008 0.00731626048292075 -0.08024742422536008
1467.9886154715937 0.006731947087818053 -0.0768050317744712 0.9932680529121818 0.0768050317744712 0.9932680529121818 0.0768050317744712 0.006731947087818053 -0.0768050317744712
1535.2109723024755 0.006195038477733602 -0.0735069369689572 0.9938049615222663 0.0735069369689572 0.9938049615222663 0.0735069369689572 0.006195038477733602 -0.0735069369689572
1605.5115854701387 0.005701613679982691 -0.07034748761562244 0.9942983863200174 0.07034748761562244 0.9942983863200174 0.07034748761562244 0.005701613679982691 -0.07034748761562244
1679.0314149545911 0.0052480786712810045 -0.0673211931942047 0.9947519213287189 0.0673211931942047 0.9947519213287189 0.0673211931942047 0.0052480786712810045 -0.0673211931942047
1755.9178755965756 0.0048311410869208435 -0.06442272954738965 0.9951688589130792 0.06442272954738965 0.9951688589130792 0.06442272954738965 0.0048311410869208435 -0.06442272954738965
1836.3251326795319 0.004447786415004645 -0.06164694204482671 0.9955522135849951 0.06164694204482671 0.9955522135849951 0.06164694204482671 0.004447786415004645 -0.06164694204482671
1920.4144110468878 0.004095255631600028 -0.05898884738641764 0.9959047443683998 0.05898884738641764 0.9959047443683998 0.05898884738641764 0.004095255631600028 -0.05898884738641764
2008.3543183745 0.0037710242349514207 -0.056443634194540626 0.9962289757650487 0.056443634194540626 0.9962289757650487 0.056443634194540626 0.0037710242349514207 -0.056443634194540626
2100.321183246434 0.0034727826393532793 -0.05400666253275643 0.9965272173606465 0.05400666253275643 0.9965272173606465 0.05400666253275643 0.0034727826393532793 -0.05400666253275643
2196.4994087119585 0.0031984178912131413 -0.05167346247935367 0.996801582108787 0.05167346247935367 0.996801582108787 0.05167346247935367 0.0031984178912131413 -0.05167346247935367
2297.0818420326846 0.0029459966706687135 -0.04943973187713431 0.9970540033293314 0.04943973187713431 0.9970540033293314 0.04943973187713431 0.0029459966706687135 -0.04943973187713431
2402.270161361206 0.0027137495415658543 -0.04730133337536687 0.9972862504584341 0.04730133337536687 0.9972862504584341 0.04730133337536687 0.0027137495415658543 -0.04730133337536687
2512.2752801266033 0.002500056410583039 -0.04525429087507745 0.997499943589417 0.04525429087507745 0.997499943589417 0.04525429087507745 0.002500056410583039 -0.04525429087507745
2627.3177699376165 0.002303433152952945 -0.04329478548414924 0.9976965668470471 0.04329478548414924 0.9976965668470471 0.04329478548414924 0.002303433152952945 -0.04329478548414924
2747.6283028514745 0.0021225193579054074 -0.04141915108350054 0.9978774806420948 0.04141915108350054 0.9978774806420948 0.04141915108350054 0.0021225193579054074 -0.04141915108350054
2873.4481138951564 0.0019560671420806646 -0.039623869599552566 0.9980439328579195 0.039623869599552566 0.9980439328579195 0.039623869599552566 0.0019560671420806646 -0.039623869599552566
3005.0294847665045 0.0018029309742304636 -0.03790556607109198 0.9981970690257697 0.03790556607109198 0.9981970690257697 0.03790556607109198 0.0018029309742304636 -0.03790556607109198
3142.6362496850466 0.0016620584500196837 -0.03626100359048851 0.9983379415499802 0.03626100359048851 0.9983379415499802 0.03626100359048851 0.0016620584500196837 -0.03626100359048851
3286.544324406816 0.0015324819520789882 -0.03468707819019592 0.998467518047921 0.03468707819019592 0.998467518047921 0.03468707819019592 0.0015324819520789882 -0.03468707819019592
3437.0422594639017 0.0014133111279523139 -0.033180813735822524 0.9985866888720476 0.033180813735822524 0.9985866888720476 0.033180813735822524 0.0014133111279523139 -0.033180813735822524
3594.431818738024 0.0013037261174190665 -0.03173935687714426 0.9986962738825811 0.03173935687714426 0.9986962738825811 0.03173935687714426 0.0013037261174190665 -0.03173935687714426
3759.0285845282415 0.0012029714609091149 -0.030359972098608738 0.9987970285390909 0.030359972098608738 0.9987970285390909 0.030359972098608738 0.0012029714609091149 -0.030359972098608738
3931.162590326006 0.001110350622312451 -0.02904003690148684 0.9988896493776874 0.02904003690148684 0.9988896493776874 0.02904003690148684 0.001110350622312451 -0.02904003690148684
4111.17898256636 0.001025221062264152 -0.02777703714115443 0.998974778937736 0.02777703714115443 0.998974778937736 0.02777703714115443 0.001025221062264152 -0.02777703714115443
4299.438712682125 9.469898017437296E-4 -0.02656856253525236 0.9990530101982562 0.02656856253525236 0.9990530101982562 0.02656856253525236 9.469898017437296E-4 -0.02656856253525236
4496.31926084876 8.751094203145189E-4 -0.02541230235181152 0.9991248905796856 0.02541230235181152 0.9991248905796856 0.02541230235181152 8.751094203145189E-4 -0.02541230235181152
4702.215392871039 8.090744382840167E-4 -0.024306041280905376 0.999190925561716 0.024306041280905376 0.999190925561716 0.024306041280905376 8.090744382840167E-4 -0.024306041280905376
4917.539951729213 7.484180372435879E-4 -0.023247655488993126 0.9992515819627563 0.023247655488993126 0.9992515819627563 0.023247655488993126 7.484180372435879E-4 -0.023247655488993126
5142.724685371758 6.927090786293996E-4 -0.02223510885177951 0.9993072909213706 0.02223510885177951 0.9993072909213706 0.02223510885177951 6.927090786293996E-4 -0.02223510885177951
5378.221112414543 6.415493849582217E-4 -0.021266449359036314 0.9993584506150419 0.021266449359036314 0.9993584506150419 0.021266449359036314 6.415493849582217E-4 -0.021266449359036314
5624.501427482224 5.945712530977087E-4 -0.020339805683278697 0.999405428746902 0.020339805683278697 0.999405428746902 0.020339805683278697 5.945712530977087E-4 -0.020339805683278697
5882.059448007167 5.514351732389085E-4 -0.01945338390332595 0.9994485648267611 0.01945338390332595 0.9994485648267611 0.01945338390332595 5.514351732389085E-4 -0.01945338390332595
6151.41160438433 5.11827731095341E-4 -0.01860546437346054 0.9994881722689046 0.01860546437346054 0.9994881722689046 0.01860546437346054 5.11827731095341E-4 -0.01860546437346054
6433.097975467465 4.754596742369591E-4 -0.017794398729004783 0.999524540325763 0.017794398729004783 0.999524540325763 0.017794398729004783 4.754596742369591E-4 -0.017794398729004783
6727.683371482931 4.4206412638262685E-4 -0.017018607019539802 0.9995579358736173 0.017018607019539802 0.9995579358736173 0.017018607019539802 4.4206412638262685E-4 -0.017018607019539802
7035.758466532445 4.1139493594438865E-4 -0.0162765749616014 0.9995886050640556 0.0162765749616014 0.9995886050640556 0.0162765749616014 4.1139493594438865E-4 -0.0162765749616014
7357.940982955574 3.8322514717564375E-4 -0.015566851303417908 0.9996167748528243 0.015566851303417908 0.9996167748528243 0.015566851303417908 3.8322514717564375E-4 -0.015566851303417908
7694.876929926739 3.5734558396543527E-4 -0.014888045295042424 0.9996426544160345 0.014888045295042424 0.9996426544160345 0.014888045295042424 3.5734558396543527E-4 -0.014888045295042424
8047.241898770236 3.3356353768696027E-4 -0.014238824258027704 0.9996664364623131 0.014238824258027704 0.9996664364623131 0.014238824258027704 3.3356353768696027E-4 -0.014238824258027704
8415.742417590522 3.117015515942592E-4 -0.013617911249559075 0.9996882984484059 0.013617911249559075 0.9996882984484059 0.013617911249559075 3.117015515942592E-4 -0.013617911249559075
8801.117367933934 2.9159629510847464E-4 -0.013024082816675312 0.9997084037048914 0.013024082816675312 0.9997084037048914 0.013024082816675312 2.9159629510847464E-4 -0.013024082816675312
9204.139466322391 2.730975219820063E-4 -0.012456166836852047 0.9997269024780181 0.012456166836852047 0.9997269024780181 0.012456166836852047 2.730975219820063E-4 -0.012456166836852047
9625.61681362972 2.5606710680912975E-4 -0.011913040441785481 0.9997439328931911 0.011913040441785481 0.9997439328931911 0.011913040441785481 2.5606710680912975E-4 -0.011913040441785481
10066.394515407255 2.4037815469511625E-4 -0.011393628021690347 0.999759621845305 0.011393628021690347 0.999759621845305 0.011393628021690347 2.4037815469511625E-4 -0.011393628021690347
10527.356376407623 2.2591417912907346E-4 -0.010896899307809994 0.9997740858208711 0.010896899307809994 0.9997740858208711 0.010896899307809994 2.2591417912907346E-4 -0.010896899307809994
11009.426672704432 2.1256834325258955E-4 -0.010421867531125905 0.9997874316567477 0.010421867531125905 0.9997874316567477 0.010421867531125905 2.1256834325258955E-4 -0.010421867531125905
11513.572004961125 2.0024275979915637E-4 -0.00996758765544886 0.9997997572402008 0.00996758765544886 0.9997997572402008 0.00996758765544886 2.0024275979915637E-4 -0.00996758765544886
12040.803236564994 1.8884784501974186E-4 -0.009533154683172293 0.9998111521549801 0.009533154683172293 0.9998111521549801 0.009533154683172293 1.8884784501974186E-4 -0.009533154683172293
12592.177520512549 1.7830172192922965E-4 -0.00911770203197418 0.9998216982780707 0.00911770203197418 0.9998216982780707 0.00911770203197418 1.7830172192922965E-4 -0.00911770203197418
